This is an invalid line, the next line is empty

# Random data, with one wind in the middle
  can0  11F80E57   [8]  C0 1C 01 CA 37 DE 15 54
  can0  11F80E57   [8]  C1 3B 1E B7 30 B6 86 16
  can0  11F80E57   [8]  C2 87 FF FF 00 00 85 40
  can0  11F80E57   [8]  C3 01 FF FF FF 7F C0 F8
  can0  11F80E57   [2]  C4 FF
  can0  09FD0269   [8]  00 3E 01 CB AC FA FF FF
  can0  09F80157   [8]  E4 7C 74 16 CE 6B 0E B7
  can0  09F20009   [8]  00 00 00 FF FF 7F FF FF
  can0  09F20009   [8]  01 00 00 FF FF 7F FF FF
  can0  09F20009   [8]  00 00 00 FF FF 7F FF FF
  can0  09F20009   [8]  01 00 00 FF FF 7F FF FF
  can0  11F80E2B   [8]  A0 1C 01 C6 A1 E6 15 79
  can0  11F80E2B   [8]  A1 82 20 B7 65 F4 7D 16
  can0  11F80E2B   [8]  A2 88 7F 3D 81 01 FB 04
  can0  11F80E2B   [8]  A3 01 96 38 FF 7F C0 F8
  can0  09F11200   [8]  FF 09 DB 00 00 FF 7F FD
  can0  1DEFFF00   [8]  00 0C E5 98 6C 07 02 02
  can0  1DEFFF00   [8]  01 41 00 89 00 00 00 FF
  can0  1DEFFF00   [8]  20 0C E5 98 6C 07 02 02
  can0  1DEFFF00   [8]  21 43 00 00 00 00 00 FF
  can0  1DEFFF00   [8]  40 09 E5 98 6C 07 02 02
  can0  1DEFFF00   [8]  41 28 00 00 FF FF FF FF
  can0  1DEFFF00   [8]  60 09 E5 98 6C 07 02 02
  can0  1DEFFF00   [8]  61 34 00 00 FF FF FF FF
  can0  1DEFFF00   [8]  80 09 E5 98 6C 07 02 02
  can0  1DEFFF00   [8]  81 1B 00 FF FF FF FF FF
  can0  1DEFFF00   [8]  A0 09 E5 98 6C 07 02 02
  can0  1DEFFF00   [8]  A1 1D 00 FF FF FF FF FF
  can0  1DFB012B   [8]  60 1B 04 99 FC 37 00 DD
  can0  1DFB012B   [8]  61 5B 01 B7 B7 F3 86 16

# bunch of different wind data
  can0  09FD0269   [8]  00 9B 01 23 AD FA FF FF
  can0  09FD0269   [8]  00 D9 01 7A AD FA FF FF
  can0  09FD0269   [8]  00 07 02 1D AC FA FF FF
  can0  09FD0269   [8]  00 02 02 74 AC FA FF FF
  can0  09FD0269   [8]  00 F8 01 1D AC FA FF FF
  can0  09FD0269   [8]  00 07 02 C6 AB FA FF FF
  can0  09FD0269   [8]  00 02 02 DD AF FA FF FF
  can0  09FD0269   [8]  00 E8 01 7A AD FA FF FF
  can0  09FD0269   [8]  00 C4 01 EE B2 FA FF FF
  can0  09FD0269   [8]  00 E8 01 DD AF FA FF FF
  can0  09FD0269   [8]  00 ED 01 2D BE FA FF FF
  can0  09FD0269   [8]  00 CE 01 3A B1 FA FF FF
  can0  09FD0269   [8]  00 E3 01 A2 B4 FA FF FF
  can0  09FD0269   [8]  00 DE 01 97 B2 FA FF FF
  can0  09FD0269   [8]  00 E8 01 8B B0 FA FF FF
  can0  09FD0269   [8]  00 ED 01 28 AE FA FF FF
  can0  09FD0269   [8]  00 E3 01 E2 B0 FA FF FF
  can0  09FD0269   [8]  00 D9 01 2E AF FA FF FF
  can0  09FD0269   [8]  00 F8 01 74 AC FA FF FF
  can0  09FD0269   [8]  00 35 02 63 A9 FA FF FF
